
T1640 000:523 SEGGER J-Link V4.90 Log File (0003ms, 0305ms total)
T1640 000:523 DLL Compiled: Jul 28 2014 10:35:20 (0003ms, 0305ms total)
T1640 000:523 Logging started @ 2018-01-03 18:35 (0003ms, 0305ms total)
T1640 000:526 JLINK_SetWarnOutHandler(...) (0000ms, 0305ms total)
T1640 000:526 JLINK_OpenEx(...)
Firmware: J-Link V9 compiled Apr 22 2016 11:47:06
Hardware: V9.40
S/N: 59425868
Feature(s): RDI, GDB, FlashDL, FlashBP, JFlash, RDDI  returns O.K. (0276ms, 0581ms total)
T1640 000:802 JLINK_SetErrorOutHandler(...) (0000ms, 0581ms total)
T1640 000:802 JLINK_ExecCommand("ProjectFile = "C:\Users\github\LCM_Board_git\JLinkSettings.ini"", ...)  returns 0x00 (0003ms, 0584ms total)
T1640 000:810 JLINK_ExecCommand("Device = STM32F103VC", ...)Device "STM32F103VC" selected (256 KB flash, 48 KB RAM).  returns 0x00 (0006ms, 0590ms total)
T1640 000:816 JLINK_ExecCommand("DisableConnectionTimeout", ...)  returns 0x01 (0000ms, 0590ms total)
T1640 000:816 JLINK_TIF_Select(JLINKARM_TIF_SWD)  returns 0x00 (0004ms, 0594ms total)
T1640 000:820 JLINK_SetSpeed(2000) (0001ms, 0595ms total)
T1640 000:821 JLINK_GetHardwareVersion()  returns 0x16F30 (0000ms, 0595ms total)
T1640 000:821 JLINK_GetDLLVersion()  returns 49000 (0000ms, 0595ms total)
T1640 000:821 JLINK_GetFirmwareString(...) (0000ms, 0595ms total)
T1640 000:841 JLINK_GetDLLVersion()  returns 49000 (0000ms, 0595ms total)
T1640 000:841 JLINK_GetCompileDateTime() (0000ms, 0595ms total)
T1640 000:843 JLINK_GetFirmwareString(...) (0000ms, 0595ms total)
T1640 000:844 JLINK_GetHardwareVersion()  returns 0x16F30 (0000ms, 0595ms total)
T1640 000:853 JLINK_GetId() >0x108 TIF>Found SWD-DP with ID 0x1BA01477 >0x0D TIF> >0x28 TIF> >0x0D TIF> >0x28 TIF> >0x0D TIF> >0x21 TIF> >0x0D TIF> >0x28 TIF> >0x0D TIF> >0x28 TIF> >0x0D TIF> >0x28 TIF> >0x0D TIF> >0x21 TIF> >0x0D TIF> >0x21 TIF> >0x0D TIF> >0x28 TIF> >0x0D TIF> >0x21 TIF> >0x0D TIF> >0x21 TIF> >0x0D TIF> >0x28 TIF> >0x0D TIF> >0x28 TIF> >0x108 TIF>Found SWD-DP with ID 0x1BA01477 >0x0D TIF> >0x21 TIF> >0x0D TIF> >0x28 TIF> >0x0D TIF> >0x28 TIF> >0x0D TIF> >0x21 TIF> >0x0D TIF> >0x28 TIF>
 >0x0D TIF> >0x21 TIF> >0x0D TIF> >0x21 TIF> >0x0D TIF> >0x21 TIF> >0x0D TIF> >0x21 TIF> >0x0D TIF> >0x28 TIF> >0x0D TIF> >0x28 TIF> >0x0D TIF> >0x21 TIF> >0x0D TIF> >0x28 TIF> >0x0D TIF> >0x28 TIF> >0x0D TIF> >0x28 TIF> >0x0D TIF> >0x21 TIF> >0x0D TIF> >0x21 TIF> >0x0D TIF> >0x28 TIF> >0x0D TIF> >0x21 TIF> >0x0D TIF> >0x21 TIF>Found Cortex-M3 r1p1, Little endian. -- CPU_WriteMem(4 bytes @ 0xE0002000) -- CPU_ReadMem(4 bytes @ 0xE000EDF0) -- CPU_WriteMem(4 bytes @ 0xE000EDF0)
 -- CPU_ReadMem(4 bytes @ 0xE0002000)FPUnit: 6 code (BP) slots and 2 literal slots -- CPU_ReadMem(4 bytes @ 0xE000EDFC) -- CPU_WriteMem(4 bytes @ 0xE000EDFC) -- CPU_ReadMem(4 bytes @ 0xE0001000) -- CPU_WriteMem(4 bytes @ 0xE0001000) -- CPU_ReadMem(4 bytes @ 0xE00FF010)TPIU fitted. -- CPU_ReadMem(4 bytes @ 0xE00FF014)ETM fitted. -- CPU_ReadMem(4 bytes @ 0xE00FF018) >0x0D TIF> >0x21 TIF>  returns 0x1BA01477 (0135ms, 0730ms total)
T1640 000:988 JLINK_GetDeviceFamily()  returns 3 (0000ms, 0730ms total)
T1640 000:993 JLINK_ReadMem (0xE00FFFF0, 0x0010 Bytes, ...) -- CPU is running -- CPU_ReadMem(16 bytes @ 0xE00FFFF0) - Data: 0D 00 00 00 10 00 00 00 05 00 00 00 B1 00 00 00  returns 0x00 (0002ms, 0732ms total)
T1640 000:995 JLINK_ReadMem (0xE00FFFD0, 0x0020 Bytes, ...) -- CPU is running -- CPU_ReadMem(32 bytes @ 0xE00FFFD0) - Data: 00 00 00 00 00 00 00 00 00 00 00 00 00 00 00 00 ...  returns 0x00 (0002ms, 0734ms total)
T1640 000:997 JLINK_ReadMem (0xE00FF000, 0x0018 Bytes, ...) -- CPU is running -- CPU_ReadMem(24 bytes @ 0xE00FF000) - Data: 03 F0 F0 FF 03 20 F0 FF 03 30 F0 FF 03 10 F0 FF ...  returns 0x00 (0001ms, 0735ms total)
T1640 000:998 JLINK_ReadMemU32(0xE000ED00, 0x0001 Items, ...) -- CPU is running -- CPU_ReadMem(4 bytes @ 0xE000ED00) - Data: 31 C2 1F 41  returns 0x01 (0001ms, 0736ms total)
T1640 000:999 JLINK_SetResetType(JLINKARM_RESET_TYPE_NORMAL)  returns JLINKARM_RESET_TYPE_NORMAL (0000ms, 0736ms total)
T1640 000:999 JLINK_Reset() -- CPU is running -- CPU_WriteMem(4 bytes @ 0xE000EDF0) -- CPU is running -- CPU_WriteMem(4 bytes @ 0xE000EDFC) >0x35 TIF> -- CPU is running -- CPU_WriteMem(4 bytes @ 0xE000ED0C) -- CPU is running -- CPU_ReadMem(4 bytes @ 0xE000EDF0) -- CPU is running -- CPU_ReadMem(4 bytes @ 0xE000EDF0) -- CPU is running -- CPU_WriteMem(4 bytes @ 0xE000EDF0) -- CPU is running -- CPU_WriteMem(4 bytes @ 0xE000EDFC) -- CPU is running -- CPU_ReadMem(4 bytes @ 0xE000EDF0)
 -- CPU_WriteMem(4 bytes @ 0xE0002000) -- CPU_ReadMem(4 bytes @ 0xE000EDFC) -- CPU_ReadMem(4 bytes @ 0xE0001000) (0025ms, 0761ms total)
T1640 001:024 JLINK_Halt()  returns 0x00 (0001ms, 0762ms total)
T1640 001:025 JLINK_IsHalted()  returns TRUE (0000ms, 0762ms total)
T1640 001:025 JLINK_ReadMemU32(0xE000EDF0, 0x0001 Items, ...) -- CPU_ReadMem(4 bytes @ 0xE000EDF0) - Data: 03 00 03 00  returns 0x01 (0001ms, 0763ms total)
T1640 001:026 JLINK_WriteU32(0xE000EDF0, 0xA05F0003) -- CPU_WriteMem(4 bytes @ 0xE000EDF0)  returns 0x00 (0001ms, 0764ms total)
T1640 001:027 JLINK_WriteU32(0xE000EDFC, 0x01000000) -- CPU_WriteMem(4 bytes @ 0xE000EDFC)  returns 0x00 (0001ms, 0765ms total)
T1640 001:049 JLINK_GetHWStatus(...)  returns 0x00 (0000ms, 0765ms total)
T1640 001:066 JLINK_GetNumBPUnits(Type = 0xFFFFFF00)  returns 0x06 (0000ms, 0765ms total)
T1640 001:066 JLINK_GetNumBPUnits(Type = 0xF0)  returns 0x2000 (0000ms, 0765ms total)
T1640 001:066 JLINK_GetNumWPUnits()  returns 0x04 (0000ms, 0765ms total)
T1640 001:079 JLINK_GetSpeed()  returns 0x7D0 (0000ms, 0765ms total)
T1640 001:084 JLINK_ReadMemU32(0xE000E004, 0x0001 Items, ...) -- CPU_ReadMem(4 bytes @ 0xE000E004) - Data: 01 00 00 00  returns 0x01 (0002ms, 0767ms total)
T1640 001:086 JLINK_ReadMemU32(0xE000E004, 0x0001 Items, ...) -- CPU_ReadMem(4 bytes @ 0xE000E004) - Data: 01 00 00 00  returns 0x01 (0001ms, 0768ms total)
T1640 001:087 JLINK_WriteMem(0xE0001000, 0x001C Bytes, ...) - Data: 01 00 00 00 00 00 00 00 00 00 00 00 00 00 00 00 ... -- CPU_WriteMem(28 bytes @ 0xE0001000)  returns 0x1C (0001ms, 0769ms total)
T1640 001:088 JLINK_ReadMem (0xE0001000, 0x001C Bytes, ...) -- CPU_ReadMem(28 bytes @ 0xE0001000) - Data: 01 00 00 40 00 00 00 00 00 00 00 00 00 00 00 00 ...  returns 0x00 (0001ms, 0770ms total)
T1640 001:089 JLINK_Halt()  returns 0x00 (0000ms, 0770ms total)
T1640 001:089 JLINK_IsHalted()  returns TRUE (0000ms, 0770ms total)
T1640 001:091 JLINK_WriteMem(0x20000000, 0x0164 Bytes, ...) - Data: 00 BE 0A E0 0D 78 2D 06 68 40 08 24 40 00 00 D3 ... -- CPU_WriteMem(356 bytes @ 0x20000000)  returns 0x164 (0003ms, 0773ms total)
T1640 001:095 JLINK_WriteReg(R0, 0x08000000)  returns 0x00 (0000ms, 0773ms total)
T1640 001:095 JLINK_WriteReg(R1, 0x007A1200)  returns 0x00 (0000ms, 0773ms total)
T1640 001:095 JLINK_WriteReg(R2, 0x00000001)  returns 0x00 (0000ms, 0773ms total)
T1640 001:095 JLINK_WriteReg(R3, 0x00000000)  returns 0x00 (0000ms, 0773ms total)
T1640 001:095 JLINK_WriteReg(R4, 0x00000000)  returns 0x00 (0000ms, 0773ms total)
T1640 001:095 JLINK_WriteReg(R5, 0x00000000)  returns 0x00 (0000ms, 0773ms total)
T1640 001:095 JLINK_WriteReg(R6, 0x00000000)  returns 0x00 (0000ms, 0773ms total)
T1640 001:095 JLINK_WriteReg(R7, 0x00000000)  returns 0x00 (0000ms, 0773ms total)
T1640 001:095 JLINK_WriteReg(R8, 0x00000000)  returns 0x00 (0000ms, 0773ms total)
T1640 001:095 JLINK_WriteReg(R9, 0x20000160)  returns 0x00 (0000ms, 0773ms total)
T1640 001:095 JLINK_WriteReg(R10, 0x00000000)  returns 0x00 (0000ms, 0773ms total)
T1640 001:095 JLINK_WriteReg(R11, 0x00000000)  returns 0x00 (0000ms, 0773ms total)
T1640 001:095 JLINK_WriteReg(R12, 0x00000000)  returns 0x00 (0000ms, 0773ms total)
T1640 001:095 JLINK_WriteReg(R13 (SP), 0x20000800)  returns 0x00 (0000ms, 0773ms total)
T1640 001:095 JLINK_WriteReg(R14, 0x20000001)  returns 0x00 (0000ms, 0773ms total)
T1640 001:095 JLINK_WriteReg(R15 (PC), 0x20000038)  returns 0x00 (0000ms, 0773ms total)
T1640 001:095 JLINK_WriteReg(XPSR, 0x01000000)  returns 0x00 (0000ms, 0773ms total)
T1640 001:095 JLINK_WriteReg(MSP, 0x20000800)  returns 0x00 (0000ms, 0773ms total)
T1640 001:095 JLINK_WriteReg(PSP, 0x20000800)  returns 0x00 (0000ms, 0773ms total)
T1640 001:095 JLINK_WriteReg(CFBP, 0x00000000)  returns 0x00 (0000ms, 0773ms total)
T1640 001:095 JLINK_SetBPEx(Addr = 0x20000000, Type = 0xFFFFFFF2) -- CPU_ReadMem(2 bytes @ 0x20000000)  returns 0x00000001 (0001ms, 0774ms total)
T1640 001:096 JLINK_Go() -- CPU_WriteMem(2 bytes @ 0x20000000) -- CPU_WriteMem(4 bytes @ 0xE0002008) -- CPU_WriteMem(4 bytes @ 0xE000200C) -- CPU_WriteMem(4 bytes @ 0xE0002010) -- CPU_WriteMem(4 bytes @ 0xE0002014) -- CPU_WriteMem(4 bytes @ 0xE0002018) -- CPU_WriteMem(4 bytes @ 0xE000201C) -- CPU_WriteMem(4 bytes @ 0xE0001004) (0012ms, 0786ms total)
T1640 001:108 JLINK_IsHalted() -- CPU_ReadMem(2 bytes @ 0x20000000)  returns TRUE (0006ms, 0792ms total)
T1640 001:114 JLINK_ReadReg(R15 (PC))  returns 0x20000000 (0000ms, 0786ms total)
T1640 001:114 JLINK_ClrBPEx(BPHandle = 0x00000001)  returns 0x00 (0000ms, 0786ms total)
T1640 001:114 JLINK_ReadReg(R0)  returns 0x00000000 (0000ms, 0786ms total)
T1640 001:114 JLINK_WriteReg(R0, 0x08000000)  returns 0x00 (0000ms, 0786ms total)
T1640 001:114 JLINK_WriteReg(R1, 0x007A1200)  returns 0x00 (0000ms, 0786ms total)
T1640 001:114 JLINK_WriteReg(R2, 0x00000001)  returns 0x00 (0000ms, 0786ms total)
T1640 001:114 JLINK_WriteReg(R3, 0x00000000)  returns 0x00 (0000ms, 0786ms total)
T1640 001:114 JLINK_WriteReg(R4, 0x00000000)  returns 0x00 (0000ms, 0786ms total)
T1640 001:114 JLINK_WriteReg(R5, 0x00000000)  returns 0x00 (0000ms, 0786ms total)
T1640 001:114 JLINK_WriteReg(R6, 0x00000000)  returns 0x00 (0000ms, 0786ms total)
T1640 001:114 JLINK_WriteReg(R7, 0x00000000)  returns 0x00 (0000ms, 0786ms total)
T1640 001:114 JLINK_WriteReg(R8, 0x00000000)  returns 0x00 (0000ms, 0786ms total)
T1640 001:114 JLINK_WriteReg(R9, 0x20000160)  returns 0x00 (0000ms, 0786ms total)
T1640 001:114 JLINK_WriteReg(R10, 0x00000000)  returns 0x00 (0000ms, 0786ms total)
T1640 001:114 JLINK_WriteReg(R11, 0x00000000)  returns 0x00 (0000ms, 0786ms total)
T1640 001:114 JLINK_WriteReg(R12, 0x00000000)  returns 0x00 (0000ms, 0786ms total)
T1640 001:114 JLINK_WriteReg(R13 (SP), 0x20000800)  returns 0x00 (0000ms, 0786ms total)
T1640 001:114 JLINK_WriteReg(R14, 0x20000001)  returns 0x00 (0000ms, 0786ms total)
T1640 001:114 JLINK_WriteReg(R15 (PC), 0x2000007C)  returns 0x00 (0000ms, 0786ms total)
T1640 001:114 JLINK_WriteReg(XPSR, 0x01000000)  returns 0x00 (0000ms, 0786ms total)
T1640 001:114 JLINK_WriteReg(MSP, 0x20000800)  returns 0x00 (0000ms, 0786ms total)
T1640 001:114 JLINK_WriteReg(PSP, 0x20000800)  returns 0x00 (0000ms, 0786ms total)
T1640 001:114 JLINK_WriteReg(CFBP, 0x00000000)  returns 0x00 (0000ms, 0786ms total)
T1640 001:114 JLINK_SetBPEx(Addr = 0x20000000, Type = 0xFFFFFFF2)  returns 0x00000002 (0000ms, 0786ms total)
T1640 001:114 JLINK_Go() (0002ms, 0788ms total)
T1640 001:117 JLINK_IsHalted()  returns FALSE (0000ms, 0788ms total)
T1640 001:142 JLINK_IsHalted() -- CPU_ReadMem(2 bytes @ 0x20000000)  returns TRUE (0005ms, 0794ms total)
T1640 001:147 JLINK_ReadReg(R15 (PC))  returns 0x20000000 (0000ms, 0789ms total)
T1640 001:147 JLINK_ClrBPEx(BPHandle = 0x00000002)  returns 0x00 (0000ms, 0789ms total)
T1640 001:147 JLINK_ReadReg(R0)  returns 0x00000000 (0000ms, 0789ms total)
T1640 001:199 JLINK_WriteReg(R0, 0x00000001)  returns 0x00 (0000ms, 0789ms total)
T1640 001:199 JLINK_WriteReg(R1, 0x007A1200)  returns 0x00 (0000ms, 0789ms total)
T1640 001:199 JLINK_WriteReg(R2, 0x00000001)  returns 0x00 (0000ms, 0789ms total)
T1640 001:199 JLINK_WriteReg(R3, 0x00000000)  returns 0x00 (0000ms, 0789ms total)
T1640 001:199 JLINK_WriteReg(R4, 0x00000000)  returns 0x00 (0000ms, 0789ms total)
T1640 001:199 JLINK_WriteReg(R5, 0x00000000)  returns 0x00 (0000ms, 0789ms total)
T1640 001:199 JLINK_WriteReg(R6, 0x00000000)  returns 0x00 (0000ms, 0789ms total)
T1640 001:199 JLINK_WriteReg(R7, 0x00000000)  returns 0x00 (0000ms, 0789ms total)
T1640 001:199 JLINK_WriteReg(R8, 0x00000000)  returns 0x00 (0000ms, 0789ms total)
T1640 001:199 JLINK_WriteReg(R9, 0x20000160)  returns 0x00 (0000ms, 0789ms total)
T1640 001:199 JLINK_WriteReg(R10, 0x00000000)  returns 0x00 (0001ms, 0790ms total)
T1640 001:200 JLINK_WriteReg(R11, 0x00000000)  returns 0x00 (0000ms, 0790ms total)
T1640 001:200 JLINK_WriteReg(R12, 0x00000000)  returns 0x00 (0000ms, 0790ms total)
T1640 001:200 JLINK_WriteReg(R13 (SP), 0x20000800)  returns 0x00 (0000ms, 0790ms total)
T1640 001:200 JLINK_WriteReg(R14, 0x20000001)  returns 0x00 (0000ms, 0790ms total)
T1640 001:200 JLINK_WriteReg(R15 (PC), 0x2000006A)  returns 0x00 (0000ms, 0790ms total)
T1640 001:200 JLINK_WriteReg(XPSR, 0x01000000)  returns 0x00 (0000ms, 0790ms total)
T1640 001:200 JLINK_WriteReg(MSP, 0x20000800)  returns 0x00 (0000ms, 0790ms total)
T1640 001:200 JLINK_WriteReg(PSP, 0x20000800)  returns 0x00 (0000ms, 0790ms total)
T1640 001:200 JLINK_WriteReg(CFBP, 0x00000000)  returns 0x00 (0000ms, 0790ms total)
T1640 001:200 JLINK_SetBPEx(Addr = 0x20000000, Type = 0xFFFFFFF2)  returns 0x00000003 (0000ms, 0790ms total)
T1640 001:200 JLINK_Go() (0003ms, 0793ms total)
T1640 001:203 JLINK_IsHalted() -- CPU_ReadMem(2 bytes @ 0x20000000)  returns TRUE (0006ms, 0799ms total)
T1640 001:209 JLINK_ReadReg(R15 (PC))  returns 0x20000000 (0000ms, 0793ms total)
T1640 001:209 JLINK_ClrBPEx(BPHandle = 0x00000003)  returns 0x00 (0000ms, 0793ms total)
T1640 001:209 JLINK_ReadReg(R0)  returns 0x00000000 (0000ms, 0793ms total)
T1640 001:228 JLINK_WriteMem(0x20000000, 0x0164 Bytes, ...) - Data: 00 BE 0A E0 0D 78 2D 06 68 40 08 24 40 00 00 D3 ... -- CPU_WriteMem(356 bytes @ 0x20000000)  returns 0x164 (0004ms, 0797ms total)
T1640 001:232 JLINK_WriteReg(R0, 0x08000000)  returns 0x00 (0000ms, 0797ms total)
T1640 001:232 JLINK_WriteReg(R1, 0x007A1200)  returns 0x00 (0000ms, 0797ms total)
T1640 001:232 JLINK_WriteReg(R2, 0x00000002)  returns 0x00 (0000ms, 0797ms total)
T1640 001:232 JLINK_WriteReg(R3, 0x00000000)  returns 0x00 (0000ms, 0797ms total)
T1640 001:232 JLINK_WriteReg(R4, 0x00000000)  returns 0x00 (0000ms, 0797ms total)
T1640 001:232 JLINK_WriteReg(R5, 0x00000000)  returns 0x00 (0000ms, 0797ms total)
T1640 001:232 JLINK_WriteReg(R6, 0x00000000)  returns 0x00 (0000ms, 0797ms total)
T1640 001:232 JLINK_WriteReg(R7, 0x00000000)  returns 0x00 (0000ms, 0797ms total)
T1640 001:232 JLINK_WriteReg(R8, 0x00000000)  returns 0x00 (0000ms, 0797ms total)
T1640 001:232 JLINK_WriteReg(R9, 0x20000160)  returns 0x00 (0000ms, 0797ms total)
T1640 001:232 JLINK_WriteReg(R10, 0x00000000)  returns 0x00 (0000ms, 0797ms total)
T1640 001:232 JLINK_WriteReg(R11, 0x00000000)  returns 0x00 (0000ms, 0797ms total)
T1640 001:232 JLINK_WriteReg(R12, 0x00000000)  returns 0x00 (0000ms, 0797ms total)
T1640 001:232 JLINK_WriteReg(R13 (SP), 0x20000800)  returns 0x00 (0000ms, 0797ms total)
T1640 001:232 JLINK_WriteReg(R14, 0x20000001)  returns 0x00 (0000ms, 0797ms total)
T1640 001:232 JLINK_WriteReg(R15 (PC), 0x20000038)  returns 0x00 (0000ms, 0797ms total)
T1640 001:232 JLINK_WriteReg(XPSR, 0x01000000)  returns 0x00 (0000ms, 0797ms total)
T1640 001:232 JLINK_WriteReg(MSP, 0x20000800)  returns 0x00 (0000ms, 0797ms total)
T1640 001:232 JLINK_WriteReg(PSP, 0x20000800)  returns 0x00 (0000ms, 0797ms total)
T1640 001:232 JLINK_WriteReg(CFBP, 0x00000000)  returns 0x00 (0000ms, 0797ms total)
T1640 001:232 JLINK_SetBPEx(Addr = 0x20000000, Type = 0xFFFFFFF2) -- CPU_ReadMem(2 bytes @ 0x20000000)  returns 0x00000004 (0002ms, 0799ms total)
T1640 001:234 JLINK_Go() -- CPU_WriteMem(2 bytes @ 0x20000000) (0004ms, 0803ms total)
T1640 001:238 JLINK_IsHalted() -- CPU_ReadMem(2 bytes @ 0x20000000)  returns TRUE (0006ms, 0809ms total)
T1640 001:244 JLINK_ReadReg(R15 (PC))  returns 0x20000000 (0000ms, 0803ms total)
T1640 001:244 JLINK_ClrBPEx(BPHandle = 0x00000004)  returns 0x00 (0000ms, 0803ms total)
T1640 001:244 JLINK_ReadReg(R0)  returns 0x00000000 (0000ms, 0803ms total)
T1640 001:245 JLINK_WriteMem(0x20000164, 0x0400 Bytes, ...) - Data: 80 BB 00 20 45 01 00 08 CD 05 00 08 CF 05 00 08 ... -- CPU_WriteMem(1024 bytes @ 0x20000164)  returns 0x400 (0009ms, 0812ms total)
T1640 001:254 JLINK_WriteReg(R0, 0x08000000)  returns 0x00 (0000ms, 0812ms total)
T1640 001:254 JLINK_WriteReg(R1, 0x00000400)  returns 0x00 (0000ms, 0812ms total)
T1640 001:254 JLINK_WriteReg(R2, 0x20000164)  returns 0x00 (0000ms, 0812ms total)
T1640 001:254 JLINK_WriteReg(R3, 0x00000000)  returns 0x00 (0000ms, 0812ms total)
T1640 001:254 JLINK_WriteReg(R4, 0x00000000)  returns 0x00 (0000ms, 0812ms total)
T1640 001:254 JLINK_WriteReg(R5, 0x00000000)  returns 0x00 (0000ms, 0812ms total)
T1640 001:254 JLINK_WriteReg(R6, 0x00000000)  returns 0x00 (0000ms, 0812ms total)
T1640 001:254 JLINK_WriteReg(R7, 0x00000000)  returns 0x00 (0000ms, 0812ms total)
T1640 001:254 JLINK_WriteReg(R8, 0x00000000)  returns 0x00 (0000ms, 0812ms total)
T1640 001:254 JLINK_WriteReg(R9, 0x20000160)  returns 0x00 (0000ms, 0812ms total)
T1640 001:254 JLINK_WriteReg(R10, 0x00000000)  returns 0x00 (0000ms, 0812ms total)
T1640 001:254 JLINK_WriteReg(R11, 0x00000000)  returns 0x00 (0000ms, 0812ms total)
T1640 001:254 JLINK_WriteReg(R12, 0x00000000)  returns 0x00 (0000ms, 0812ms total)
T1640 001:254 JLINK_WriteReg(R13 (SP), 0x20000800)  returns 0x00 (0000ms, 0812ms total)
T1640 001:254 JLINK_WriteReg(R14, 0x20000001)  returns 0x00 (0000ms, 0812ms total)
T1640 001:254 JLINK_WriteReg(R15 (PC), 0x200000F4)  returns 0x00 (0000ms, 0812ms total)
T1640 001:254 JLINK_WriteReg(XPSR, 0x01000000)  returns 0x00 (0000ms, 0812ms total)
T1640 001:254 JLINK_WriteReg(MSP, 0x20000800)  returns 0x00 (0000ms, 0812ms total)
T1640 001:254 JLINK_WriteReg(PSP, 0x20000800)  returns 0x00 (0000ms, 0812ms total)
T1640 001:254 JLINK_WriteReg(CFBP, 0x00000000)  returns 0x00 (0000ms, 0812ms total)
T1640 001:254 JLINK_SetBPEx(Addr = 0x20000000, Type = 0xFFFFFFF2)  returns 0x00000005 (0000ms, 0812ms total)
T1640 001:254 JLINK_Go() (0003ms, 0815ms total)
T1640 001:257 JLINK_IsHalted()  returns FALSE (0001ms, 0816ms total)
T1640 001:286 JLINK_IsHalted()  returns FALSE (0001ms, 0816ms total)
T1640 001:288 JLINK_IsHalted() -- CPU_ReadMem(2 bytes @ 0x20000000)  returns TRUE (0006ms, 0821ms total)
T1640 001:294 JLINK_ReadReg(R15 (PC))  returns 0x20000000 (0000ms, 0815ms total)
T1640 001:294 JLINK_ClrBPEx(BPHandle = 0x00000005)  returns 0x00 (0000ms, 0815ms total)
T1640 001:294 JLINK_ReadReg(R0)  returns 0x00000000 (0000ms, 0815ms total)
T1640 001:294 JLINK_WriteMem(0x20000164, 0x0400 Bytes, ...) - Data: 5A 49 08 60 4C 48 00 68 40 1C 4B 49 08 60 47 49 ... -- CPU_WriteMem(1024 bytes @ 0x20000164)  returns 0x400 (0008ms, 0823ms total)
T1640 001:303 JLINK_WriteReg(R0, 0x08000400)  returns 0x00 (0000ms, 0823ms total)
T1640 001:303 JLINK_WriteReg(R1, 0x00000400)  returns 0x00 (0000ms, 0823ms total)
T1640 001:303 JLINK_WriteReg(R2, 0x20000164)  returns 0x00 (0000ms, 0823ms total)
T1640 001:303 JLINK_WriteReg(R3, 0x00000000)  returns 0x00 (0000ms, 0823ms total)
T1640 001:303 JLINK_WriteReg(R4, 0x00000000)  returns 0x00 (0000ms, 0823ms total)
T1640 001:303 JLINK_WriteReg(R5, 0x00000000)  returns 0x00 (0000ms, 0823ms total)
T1640 001:303 JLINK_WriteReg(R6, 0x00000000)  returns 0x00 (0000ms, 0823ms total)
T1640 001:303 JLINK_WriteReg(R7, 0x00000000)  returns 0x00 (0000ms, 0823ms total)
T1640 001:303 JLINK_WriteReg(R8, 0x00000000)  returns 0x00 (0000ms, 0823ms total)
T1640 001:303 JLINK_WriteReg(R9, 0x20000160)  returns 0x00 (0000ms, 0823ms total)
T1640 001:303 JLINK_WriteReg(R10, 0x00000000)  returns 0x00 (0000ms, 0823ms total)
T1640 001:303 JLINK_WriteReg(R11, 0x00000000)  returns 0x00 (0000ms, 0823ms total)
T1640 001:303 JLINK_WriteReg(R12, 0x00000000)  returns 0x00 (0000ms, 0823ms total)
T1640 001:303 JLINK_WriteReg(R13 (SP), 0x20000800)  returns 0x00 (0000ms, 0823ms total)
T1640 001:303 JLINK_WriteReg(R14, 0x20000001)  returns 0x00 (0000ms, 0823ms total)
T1640 001:303 JLINK_WriteReg(R15 (PC), 0x200000F4)  returns 0x00 (0000ms, 0823ms total)
T1640 001:303 JLINK_WriteReg(XPSR, 0x01000000)  returns 0x00 (0000ms, 0823ms total)
T1640 001:303 JLINK_WriteReg(MSP, 0x20000800)  returns 0x00 (0000ms, 0823ms total)
T1640 001:303 JLINK_WriteReg(PSP, 0x20000800)  returns 0x00 (0000ms, 0823ms total)
T1640 001:303 JLINK_WriteReg(CFBP, 0x00000000)  returns 0x00 (0000ms, 0823ms total)
T1640 001:303 JLINK_SetBPEx(Addr = 0x20000000, Type = 0xFFFFFFF2)  returns 0x00000006 (0000ms, 0823ms total)
T1640 001:303 JLINK_Go() (0002ms, 0825ms total)
T1640 001:306 JLINK_IsHalted()  returns FALSE (0001ms, 0826ms total)
T1640 001:314 JLINK_IsHalted()  returns FALSE (0001ms, 0826ms total)
T1640 001:316 JLINK_IsHalted()  returns FALSE (0001ms, 0826ms total)
T1640 001:318 JLINK_IsHalted()  returns FALSE (0001ms, 0826ms total)
T1640 001:320 JLINK_IsHalted()  returns FALSE (0001ms, 0826ms total)
T1640 001:322 JLINK_IsHalted()  returns FALSE (0001ms, 0826ms total)
T1640 001:324 JLINK_IsHalted()  returns FALSE (0001ms, 0826ms total)
T1640 001:328 JLINK_IsHalted()  returns FALSE (0001ms, 0826ms total)
T1640 001:330 JLINK_IsHalted()  returns FALSE (0001ms, 0826ms total)
T1640 001:332 JLINK_IsHalted()  returns FALSE (0001ms, 0826ms total)
T1640 001:334 JLINK_IsHalted()  returns FALSE (0001ms, 0826ms total)
T1640 001:336 JLINK_IsHalted() -- CPU_ReadMem(2 bytes @ 0x20000000)  returns TRUE (0006ms, 0831ms total)
T1640 001:342 JLINK_ReadReg(R15 (PC))  returns 0x20000000 (0000ms, 0825ms total)
T1640 001:342 JLINK_ClrBPEx(BPHandle = 0x00000006)  returns 0x00 (0000ms, 0825ms total)
T1640 001:342 JLINK_ReadReg(R0)  returns 0x00000000 (0000ms, 0825ms total)
T1640 001:343 JLINK_WriteMem(0x20000164, 0x0400 Bytes, ...) - Data: D4 48 08 F0 3C F9 02 20 FF F7 90 FF 60 06 04 0E ... -- CPU_WriteMem(1024 bytes @ 0x20000164)  returns 0x400 (0008ms, 0833ms total)
T1640 001:351 JLINK_WriteReg(R0, 0x08000800)  returns 0x00 (0000ms, 0833ms total)
T1640 001:351 JLINK_WriteReg(R1, 0x00000400)  returns 0x00 (0000ms, 0833ms total)
T1640 001:351 JLINK_WriteReg(R2, 0x20000164)  returns 0x00 (0000ms, 0833ms total)
T1640 001:351 JLINK_WriteReg(R3, 0x00000000)  returns 0x00 (0000ms, 0833ms total)
T1640 001:351 JLINK_WriteReg(R4, 0x00000000)  returns 0x00 (0000ms, 0833ms total)
T1640 001:351 JLINK_WriteReg(R5, 0x00000000)  returns 0x00 (0000ms, 0833ms total)
T1640 001:351 JLINK_WriteReg(R6, 0x00000000)  returns 0x00 (0000ms, 0833ms total)
T1640 001:351 JLINK_WriteReg(R7, 0x00000000)  returns 0x00 (0000ms, 0833ms total)
T1640 001:351 JLINK_WriteReg(R8, 0x00000000)  returns 0x00 (0000ms, 0833ms total)
T1640 001:351 JLINK_WriteReg(R9, 0x20000160)  returns 0x00 (0000ms, 0833ms total)
T1640 001:351 JLINK_WriteReg(R10, 0x00000000)  returns 0x00 (0000ms, 0833ms total)
T1640 001:351 JLINK_WriteReg(R11, 0x00000000)  returns 0x00 (0000ms, 0833ms total)
T1640 001:351 JLINK_WriteReg(R12, 0x00000000)  returns 0x00 (0000ms, 0833ms total)
T1640 001:351 JLINK_WriteReg(R13 (SP), 0x20000800)  returns 0x00 (0000ms, 0833ms total)
T1640 001:351 JLINK_WriteReg(R14, 0x20000001)  returns 0x00 (0000ms, 0833ms total)
T1640 001:351 JLINK_WriteReg(R15 (PC), 0x200000F4)  returns 0x00 (0000ms, 0833ms total)
T1640 001:351 JLINK_WriteReg(XPSR, 0x01000000)  returns 0x00 (0000ms, 0833ms total)
T1640 001:351 JLINK_WriteReg(MSP, 0x20000800)  returns 0x00 (0000ms, 0833ms total)
T1640 001:351 JLINK_WriteReg(PSP, 0x20000800)  returns 0x00 (0000ms, 0833ms total)
T1640 001:351 JLINK_WriteReg(CFBP, 0x00000000)  returns 0x00 (0000ms, 0833ms total)
T1640 001:351 JLINK_SetBPEx(Addr = 0x20000000, Type = 0xFFFFFFF2)  returns 0x00000007 (0000ms, 0833ms total)
T1640 001:351 JLINK_Go() (0003ms, 0836ms total)
T1640 001:354 JLINK_IsHalted()  returns FALSE (0001ms, 0837ms total)
T1640 001:357 JLINK_IsHalted()  returns FALSE (0001ms, 0837ms total)
T1640 001:359 JLINK_IsHalted()  returns FALSE (0001ms, 0837ms total)
T1640 001:361 JLINK_IsHalted()  returns FALSE (0001ms, 0837ms total)
T1640 001:363 JLINK_IsHalted()  returns FALSE (0001ms, 0837ms total)
T1640 001:365 JLINK_IsHalted()  returns FALSE (0001ms, 0837ms total)
T1640 001:367 JLINK_IsHalted()  returns FALSE (0001ms, 0837ms total)
T1640 001:369 JLINK_IsHalted()  returns FALSE (0001ms, 0837ms total)
T1640 001:374 JLINK_IsHalted()  returns FALSE (0001ms, 0837ms total)
T1640 001:376 JLINK_IsHalted()  returns FALSE (0001ms, 0837ms total)
T1640 001:378 JLINK_IsHalted()  returns FALSE (0001ms, 0837ms total)
T1640 001:380 JLINK_IsHalted()  returns FALSE (0001ms, 0837ms total)
T1640 001:382 JLINK_IsHalted()  returns FALSE (0001ms, 0837ms total)
T1640 001:384 JLINK_IsHalted()  returns FALSE (0001ms, 0837ms total)
T1640 001:386 JLINK_IsHalted() -- CPU_ReadMem(2 bytes @ 0x20000000)  returns TRUE (0006ms, 0842ms total)
T1640 001:392 JLINK_ReadReg(R15 (PC))  returns 0x20000000 (0000ms, 0836ms total)
T1640 001:392 JLINK_ClrBPEx(BPHandle = 0x00000007)  returns 0x00 (0000ms, 0836ms total)
T1640 001:392 JLINK_ReadReg(R0)  returns 0x00000000 (0000ms, 0836ms total)
T1640 001:393 JLINK_WriteMem(0x20000164, 0x0400 Bytes, ...) - Data: 24 FF 08 B1 44 F0 01 04 6D 1C 08 2D E5 D3 20 46 ... -- CPU_WriteMem(1024 bytes @ 0x20000164)  returns 0x400 (0008ms, 0844ms total)
T1640 001:401 JLINK_WriteReg(R0, 0x08000C00)  returns 0x00 (0000ms, 0844ms total)
T1640 001:402 JLINK_WriteReg(R1, 0x00000400)  returns 0x00 (0000ms, 0845ms total)
T1640 001:402 JLINK_WriteReg(R2, 0x20000164)  returns 0x00 (0000ms, 0845ms total)
T1640 001:402 JLINK_WriteReg(R3, 0x00000000)  returns 0x00 (0000ms, 0845ms total)
T1640 001:402 JLINK_WriteReg(R4, 0x00000000)  returns 0x00 (0000ms, 0845ms total)
T1640 001:402 JLINK_WriteReg(R5, 0x00000000)  returns 0x00 (0000ms, 0845ms total)
T1640 001:402 JLINK_WriteReg(R6, 0x00000000)  returns 0x00 (0000ms, 0845ms total)
T1640 001:402 JLINK_WriteReg(R7, 0x00000000)  returns 0x00 (0000ms, 0845ms total)
T1640 001:402 JLINK_WriteReg(R8, 0x00000000)  returns 0x00 (0000ms, 0845ms total)
T1640 001:402 JLINK_WriteReg(R9, 0x20000160)  returns 0x00 (0000ms, 0845ms total)
T1640 001:402 JLINK_WriteReg(R10, 0x00000000)  returns 0x00 (0000ms, 0845ms total)
T1640 001:402 JLINK_WriteReg(R11, 0x00000000)  returns 0x00 (0000ms, 0845ms total)
T1640 001:402 JLINK_WriteReg(R12, 0x00000000)  returns 0x00 (0000ms, 0845ms total)
T1640 001:402 JLINK_WriteReg(R13 (SP), 0x20000800)  returns 0x00 (0000ms, 0845ms total)
T1640 001:402 JLINK_WriteReg(R14, 0x20000001)  returns 0x00 (0000ms, 0845ms total)
T1640 001:402 JLINK_WriteReg(R15 (PC), 0x200000F4)  returns 0x00 (0000ms, 0845ms total)
T1640 001:402 JLINK_WriteReg(XPSR, 0x01000000)  returns 0x00 (0000ms, 0845ms total)
T1640 001:402 JLINK_WriteReg(MSP, 0x20000800)  returns 0x00 (0000ms, 0845ms total)
T1640 001:402 JLINK_WriteReg(PSP, 0x20000800)  returns 0x00 (0000ms, 0845ms total)
T1640 001:402 JLINK_WriteReg(CFBP, 0x00000000)  returns 0x00 (0000ms, 0845ms total)
T1640 001:402 JLINK_SetBPEx(Addr = 0x20000000, Type = 0xFFFFFFF2)  returns 0x00000008 (0000ms, 0845ms total)
T1640 001:402 JLINK_Go() (0003ms, 0848ms total)
T1640 001:405 JLINK_IsHalted()  returns FALSE (0001ms, 0849ms total)
T1640 001:413 JLINK_IsHalted()  returns FALSE (0001ms, 0849ms total)
T1640 001:415 JLINK_IsHalted()  returns FALSE (0001ms, 0849ms total)
T1640 001:417 JLINK_IsHalted()  returns FALSE (0001ms, 0849ms total)
T1640 001:434 JLINK_IsHalted()  returns FALSE (0001ms, 0849ms total)
T1640 001:436 JLINK_IsHalted() -- CPU_ReadMem(2 bytes @ 0x20000000)  returns TRUE (0005ms, 0853ms total)
T1640 001:441 JLINK_ReadReg(R15 (PC))  returns 0x20000000 (0000ms, 0848ms total)
T1640 001:441 JLINK_ClrBPEx(BPHandle = 0x00000008)  returns 0x00 (0001ms, 0849ms total)
T1640 001:442 JLINK_ReadReg(R0)  returns 0x00000000 (0000ms, 0849ms total)
T1640 001:442 JLINK_WriteMem(0x20000164, 0x0400 Bytes, ...) - Data: DC 48 07 F0 3C FD 01 21 DA 48 07 F0 38 FD FF F7 ... -- CPU_WriteMem(1024 bytes @ 0x20000164)  returns 0x400 (0009ms, 0858ms total)
T1640 001:451 JLINK_WriteReg(R0, 0x08001000)  returns 0x00 (0000ms, 0858ms total)
T1640 001:451 JLINK_WriteReg(R1, 0x00000400)  returns 0x00 (0000ms, 0858ms total)
T1640 001:451 JLINK_WriteReg(R2, 0x20000164)  returns 0x00 (0000ms, 0858ms total)
T1640 001:451 JLINK_WriteReg(R3, 0x00000000)  returns 0x00 (0000ms, 0858ms total)
T1640 001:451 JLINK_WriteReg(R4, 0x00000000)  returns 0x00 (0000ms, 0858ms total)
T1640 001:451 JLINK_WriteReg(R5, 0x00000000)  returns 0x00 (0000ms, 0858ms total)
T1640 001:451 JLINK_WriteReg(R6, 0x00000000)  returns 0x00 (0000ms, 0858ms total)
T1640 001:451 JLINK_WriteReg(R7, 0x00000000)  returns 0x00 (0000ms, 0858ms total)
T1640 001:451 JLINK_WriteReg(R8, 0x00000000)  returns 0x00 (0000ms, 0858ms total)
T1640 001:451 JLINK_WriteReg(R9, 0x20000160)  returns 0x00 (0000ms, 0858ms total)
T1640 001:451 JLINK_WriteReg(R10, 0x00000000)  returns 0x00 (0000ms, 0858ms total)
T1640 001:451 JLINK_WriteReg(R11, 0x00000000)  returns 0x00 (0000ms, 0858ms total)
T1640 001:451 JLINK_WriteReg(R12, 0x00000000)  returns 0x00 (0000ms, 0858ms total)
T1640 001:451 JLINK_WriteReg(R13 (SP), 0x20000800)  returns 0x00 (0000ms, 0858ms total)
T1640 001:451 JLINK_WriteReg(R14, 0x20000001)  returns 0x00 (0000ms, 0858ms total)
T1640 001:451 JLINK_WriteReg(R15 (PC), 0x200000F4)  returns 0x00 (0000ms, 0858ms total)
T1640 001:451 JLINK_WriteReg(XPSR, 0x01000000)  returns 0x00 (0000ms, 0858ms total)
T1640 001:451 JLINK_WriteReg(MSP, 0x20000800)  returns 0x00 (0000ms, 0858ms total)
T1640 001:451 JLINK_WriteReg(PSP, 0x20000800)  returns 0x00 (0000ms, 0858ms total)
T1640 001:451 JLINK_WriteReg(CFBP, 0x00000000)  returns 0x00 (0000ms, 0858ms total)
T1640 001:451 JLINK_SetBPEx(Addr = 0x20000000, Type = 0xFFFFFFF2)  returns 0x00000009 (0000ms, 0858ms total)
T1640 001:451 JLINK_Go() (0003ms, 0861ms total)
T1640 001:454 JLINK_IsHalted()  returns FALSE (0001ms, 0862ms total)
T1640 001:456 JLINK_IsHalted()  returns FALSE (0001ms, 0862ms total)
T1640 001:458 JLINK_IsHalted()  returns FALSE (0001ms, 0862ms total)
T1640 001:460 JLINK_IsHalted()  returns FALSE (0001ms, 0862ms total)
T1640 001:467 JLINK_IsHalted()  returns FALSE (0001ms, 0862ms total)
T1640 001:469 JLINK_IsHalted()  returns FALSE (0001ms, 0862ms total)
T1640 001:471 JLINK_IsHalted()  returns FALSE (0001ms, 0862ms total)
T1640 001:473 JLINK_IsHalted()  returns FALSE (0001ms, 0862ms total)
T1640 001:475 JLINK_IsHalted()  returns FALSE (0001ms, 0862ms total)
T1640 001:477 JLINK_IsHalted()  returns FALSE (0001ms, 0862ms total)
T1640 001:479 JLINK_IsHalted()  returns FALSE (0001ms, 0862ms total)
T1640 001:481 JLINK_IsHalted()  returns FALSE (0001ms, 0862ms total)
T1640 001:489 JLINK_IsHalted() -- CPU_ReadMem(2 bytes @ 0x20000000)  returns TRUE (0006ms, 0867ms total)
T1640 001:495 JLINK_ReadReg(R15 (PC))  returns 0x20000000 (0000ms, 0861ms total)
T1640 001:495 JLINK_ClrBPEx(BPHandle = 0x00000009)  returns 0x00 (0000ms, 0861ms total)
T1640 001:495 JLINK_ReadReg(R0)  returns 0x00000000 (0000ms, 0861ms total)
T1640 001:496 JLINK_WriteMem(0x20000164, 0x0400 Bytes, ...) - Data: FF F7 0E FA 40 46 FF F7 0B FA 48 46 FF F7 08 FA ... -- CPU_WriteMem(1024 bytes @ 0x20000164)  returns 0x400 (0009ms, 0870ms total)
T1640 001:505 JLINK_WriteReg(R0, 0x08001400)  returns 0x00 (0000ms, 0870ms total)
T1640 001:505 JLINK_WriteReg(R1, 0x00000400)  returns 0x00 (0000ms, 0870ms total)
T1640 001:505 JLINK_WriteReg(R2, 0x20000164)  returns 0x00 (0000ms, 0870ms total)
T1640 001:505 JLINK_WriteReg(R3, 0x00000000)  returns 0x00 (0000ms, 0870ms total)
T1640 001:505 JLINK_WriteReg(R4, 0x00000000)  returns 0x00 (0000ms, 0870ms total)
T1640 001:505 JLINK_WriteReg(R5, 0x00000000)  returns 0x00 (0000ms, 0870ms total)
T1640 001:506 JLINK_WriteReg(R6, 0x00000000)  returns 0x00 (0000ms, 0871ms total)
T1640 001:506 JLINK_WriteReg(R7, 0x00000000)  returns 0x00 (0000ms, 0871ms total)
T1640 001:506 JLINK_WriteReg(R8, 0x00000000)  returns 0x00 (0000ms, 0871ms total)
T1640 001:506 JLINK_WriteReg(R9, 0x20000160)  returns 0x00 (0000ms, 0871ms total)
T1640 001:506 JLINK_WriteReg(R10, 0x00000000)  returns 0x00 (0000ms, 0871ms total)
T1640 001:506 JLINK_WriteReg(R11, 0x00000000)  returns 0x00 (0000ms, 0871ms total)
T1640 001:506 JLINK_WriteReg(R12, 0x00000000)  returns 0x00 (0000ms, 0871ms total)
T1640 001:506 JLINK_WriteReg(R13 (SP), 0x20000800)  returns 0x00 (0000ms, 0871ms total)
T1640 001:506 JLINK_WriteReg(R14, 0x20000001)  returns 0x00 (0000ms, 0871ms total)
T1640 001:506 JLINK_WriteReg(R15 (PC), 0x200000F4)  returns 0x00 (0000ms, 0871ms total)
T1640 001:506 JLINK_WriteReg(XPSR, 0x01000000)  returns 0x00 (0000ms, 0871ms total)
T1640 001:506 JLINK_WriteReg(MSP, 0x20000800)  returns 0x00 (0000ms, 0871ms total)
T1640 001:506 JLINK_WriteReg(PSP, 0x20000800)  returns 0x00 (0000ms, 0871ms total)
T1640 001:506 JLINK_WriteReg(CFBP, 0x00000000)  returns 0x00 (0000ms, 0871ms total)
T1640 001:506 JLINK_SetBPEx(Addr = 0x20000000, Type = 0xFFFFFFF2)  returns 0x0000000A (0000ms, 0871ms total)
T1640 001:506 JLINK_Go() (0003ms, 0874ms total)
T1640 001:509 JLINK_IsHalted()  returns FALSE (0001ms, 0875ms total)
T1640 001:519 JLINK_IsHalted()  returns FALSE (0001ms, 0875ms total)
T1640 001:521 JLINK_IsHalted()  returns FALSE (0001ms, 0875ms total)
T1640 001:523 JLINK_IsHalted()  returns FALSE (0001ms, 0875ms total)
T1640 001:536 JLINK_IsHalted()  returns FALSE (0001ms, 0875ms total)
T1640 001:538 JLINK_IsHalted()  returns FALSE (0001ms, 0875ms total)
T1640 001:548 JLINK_IsHalted() -- CPU_ReadMem(2 bytes @ 0x20000000)  returns TRUE (0006ms, 0880ms total)
T1640 001:554 JLINK_ReadReg(R15 (PC))  returns 0x20000000 (0000ms, 0874ms total)
T1640 001:554 JLINK_ClrBPEx(BPHandle = 0x0000000A)  returns 0x00 (0000ms, 0874ms total)
T1640 001:554 JLINK_ReadReg(R0)  returns 0x00000000 (0000ms, 0874ms total)
T1640 001:555 JLINK_WriteMem(0x20000164, 0x0400 Bytes, ...) - Data: 00 20 0E F0 3A FC 00 20 0E F0 37 FC 64 1C 17 48 ... -- CPU_WriteMem(1024 bytes @ 0x20000164)  returns 0x400 (0009ms, 0883ms total)
T1640 001:564 JLINK_WriteReg(R0, 0x08001800)  returns 0x00 (0000ms, 0883ms total)
T1640 001:564 JLINK_WriteReg(R1, 0x00000400)  returns 0x00 (0000ms, 0883ms total)
T1640 001:564 JLINK_WriteReg(R2, 0x20000164)  returns 0x00 (0000ms, 0883ms total)
T1640 001:564 JLINK_WriteReg(R3, 0x00000000)  returns 0x00 (0000ms, 0883ms total)
T1640 001:564 JLINK_WriteReg(R4, 0x00000000)  returns 0x00 (0000ms, 0883ms total)
T1640 001:564 JLINK_WriteReg(R5, 0x00000000)  returns 0x00 (0000ms, 0883ms total)
T1640 001:564 JLINK_WriteReg(R6, 0x00000000)  returns 0x00 (0000ms, 0883ms total)
T1640 001:564 JLINK_WriteReg(R7, 0x00000000)  returns 0x00 (0000ms, 0883ms total)
T1640 001:564 JLINK_WriteReg(R8, 0x00000000)  returns 0x00 (0000ms, 0883ms total)
T1640 001:564 JLINK_WriteReg(R9, 0x20000160)  returns 0x00 (0000ms, 0883ms total)
T1640 001:565 JLINK_WriteReg(R10, 0x00000000)  returns 0x00 (0000ms, 0884ms total)
T1640 001:565 JLINK_WriteReg(R11, 0x00000000)  returns 0x00 (0000ms, 0884ms total)
T1640 001:565 JLINK_WriteReg(R12, 0x00000000)  returns 0x00 (0000ms, 0884ms total)
T1640 001:565 JLINK_WriteReg(R13 (SP), 0x20000800)  returns 0x00 (0000ms, 0884ms total)
T1640 001:565 JLINK_WriteReg(R14, 0x20000001)  returns 0x00 (0000ms, 0884ms total)
T1640 001:565 JLINK_WriteReg(R15 (PC), 0x200000F4)  returns 0x00 (0000ms, 0884ms total)
T1640 001:565 JLINK_WriteReg(XPSR, 0x01000000)  returns 0x00 (0000ms, 0884ms total)
T1640 001:565 JLINK_WriteReg(MSP, 0x20000800)  returns 0x00 (0000ms, 0884ms total)
T1640 001:565 JLINK_WriteReg(PSP, 0x20000800)  returns 0x00 (0000ms, 0884ms total)
T1640 001:565 JLINK_WriteReg(CFBP, 0x00000000)  returns 0x00 (0000ms, 0884ms total)
T1640 001:565 JLINK_SetBPEx(Addr = 0x20000000, Type = 0xFFFFFFF2)  returns 0x0000000B (0000ms, 0884ms total)
T1640 001:565 JLINK_Go() (0002ms, 0886ms total)
T1640 001:567 JLINK_IsHalted()  returns FALSE (0001ms, 0887ms total)
T1640 001:569 JLINK_IsHalted()  returns FALSE (0000ms, 0886ms total)
T1640 001:570 JLINK_IsHalted()  returns FALSE (0001ms, 0887ms total)
T1640 001:575 JLINK_IsHalted()  returns FALSE (0001ms, 0887ms total)
T1640 001:577 JLINK_IsHalted()  returns FALSE (0001ms, 0887ms total)
T1640 001:579 JLINK_IsHalted()  returns FALSE (0001ms, 0887ms total)
T1640 001:581 JLINK_IsHalted()  returns FALSE (0001ms, 0887ms total)
T1640 001:584 JLINK_IsHalted()  returns FALSE (0001ms, 0887ms total)
T1640 001:590 JLINK_IsHalted()  returns FALSE (0001ms, 0887ms total)
T1640 001:592 JLINK_IsHalted()  returns FALSE (0001ms, 0887ms total)
T1640 001:594 JLINK_IsHalted()  returns FALSE (0001ms, 0887ms total)
T1640 001:596 JLINK_IsHalted()  returns FALSE (0001ms, 0887ms total)
T1640 001:598 JLINK_IsHalted() -- CPU_ReadMem(2 bytes @ 0x20000000)  returns TRUE (0005ms, 0891ms total)
T1640 001:603 JLINK_ReadReg(R15 (PC))  returns 0x20000000 (0000ms, 0886ms total)
T1640 001:603 JLINK_ClrBPEx(BPHandle = 0x0000000B)  returns 0x00 (0000ms, 0886ms total)
T1640 001:603 JLINK_ReadReg(R0)  returns 0x00000000 (0000ms, 0886ms total)
T1640 001:604 JLINK_WriteMem(0x20000164, 0x0400 Bytes, ...) - Data: FF 20 0E F0 3A FA 64 1C 17 48 00 68 05 21 B0 FB ... -- CPU_WriteMem(1024 bytes @ 0x20000164)  returns 0x400 (0008ms, 0894ms total)
T1640 001:612 JLINK_WriteReg(R0, 0x08001C00)  returns 0x00 (0000ms, 0894ms total)
T1640 001:612 JLINK_WriteReg(R1, 0x00000400)  returns 0x00 (0000ms, 0894ms total)
T1640 001:612 JLINK_WriteReg(R2, 0x20000164)  returns 0x00 (0000ms, 0894ms total)
T1640 001:612 JLINK_WriteReg(R3, 0x00000000)  returns 0x00 (0000ms, 0894ms total)
T1640 001:612 JLINK_WriteReg(R4, 0x00000000)  returns 0x00 (0000ms, 0894ms total)
T1640 001:612 JLINK_WriteReg(R5, 0x00000000)  returns 0x00 (0000ms, 0894ms total)
T1640 001:612 JLINK_WriteReg(R6, 0x00000000)  returns 0x00 (0000ms, 0894ms total)
T1640 001:612 JLINK_WriteReg(R7, 0x00000000)  returns 0x00 (0000ms, 0894ms total)
T1640 001:612 JLINK_WriteReg(R8, 0x00000000)  returns 0x00 (0000ms, 0894ms total)
T1640 001:612 JLINK_WriteReg(R9, 0x20000160)  returns 0x00 (0000ms, 0894ms total)
T1640 001:612 JLINK_WriteReg(R10, 0x00000000)  returns 0x00 (0000ms, 0894ms total)
T1640 001:612 JLINK_WriteReg(R11, 0x00000000)  returns 0x00 (0000ms, 0894ms total)
T1640 001:613 JLINK_WriteReg(R12, 0x00000000)  returns 0x00 (0000ms, 0895ms total)
T1640 001:613 JLINK_WriteReg(R13 (SP), 0x20000800)  returns 0x00 (0000ms, 0895ms total)
T1640 001:613 JLINK_WriteReg(R14, 0x20000001)  returns 0x00 (0000ms, 0895ms total)
T1640 001:613 JLINK_WriteReg(R15 (PC), 0x200000F4)  returns 0x00 (0000ms, 0895ms total)
T1640 001:613 JLINK_WriteReg(XPSR, 0x01000000)  returns 0x00 (0000ms, 0895ms total)
T1640 001:613 JLINK_WriteReg(MSP, 0x20000800)  returns 0x00 (0000ms, 0895ms total)
T1640 001:613 JLINK_WriteReg(PSP, 0x20000800)  returns 0x00 (0000ms, 0895ms total)
T1640 001:613 JLINK_WriteReg(CFBP, 0x00000000)  returns 0x00 (0000ms, 0895ms total)
T1640 001:613 JLINK_SetBPEx(Addr = 0x20000000, Type = 0xFFFFFFF2)  returns 0x0000000C (0000ms, 0895ms total)
T1640 001:613 JLINK_Go() (0002ms, 0897ms total)
T1640 001:615 JLINK_IsHalted()  returns FALSE (0001ms, 0898ms total)
T1640 001:620 JLINK_IsHalted()  returns FALSE (0001ms, 0898ms total)
T1640 001:622 JLINK_IsHalted()  returns FALSE (0001ms, 0898ms total)
T1640 001:624 JLINK_IsHalted()  returns FALSE (0001ms, 0898ms total)
T1640 001:626 JLINK_IsHalted()  returns FALSE (0001ms, 0898ms total)
T1640 001:628 JLINK_IsHalted()  returns FALSE (0001ms, 0898ms total)
T1640 001:630 JLINK_IsHalted()  returns FALSE (0001ms, 0898ms total)
T1640 001:632 JLINK_IsHalted()  returns FALSE (0001ms, 0898ms total)
T1640 001:634 JLINK_IsHalted()  returns FALSE (0001ms, 0898ms total)
T1640 001:636 JLINK_IsHalted()  returns FALSE (0001ms, 0898ms total)
T1640 001:641 JLINK_IsHalted()  returns FALSE (0001ms, 0898ms total)
T1640 001:643 JLINK_IsHalted()  returns FALSE (0001ms, 0898ms total)
T1640 001:645 JLINK_IsHalted()  returns FALSE (0001ms, 0898ms total)
T1640 001:647 JLINK_IsHalted() -- CPU_ReadMem(2 bytes @ 0x20000000)  returns TRUE (0005ms, 0902ms total)
T1640 001:652 JLINK_ReadReg(R15 (PC))  returns 0x20000000 (0000ms, 0897ms total)
T1640 001:652 JLINK_ClrBPEx(BPHandle = 0x0000000C)  returns 0x00 (0000ms, 0897ms total)
T1640 001:652 JLINK_ReadReg(R0)  returns 0x00000000 (0000ms, 0897ms total)
T1640 001:652 JLINK_WriteMem(0x20000164, 0x0400 Bytes, ...) - Data: 1F 48 00 68 00 EB 80 00 40 00 B4 EB 50 1F ED D3 ... -- CPU_WriteMem(1024 bytes @ 0x20000164)  returns 0x400 (0009ms, 0906ms total)
T1640 001:661 JLINK_WriteReg(R0, 0x08002000)  returns 0x00 (0000ms, 0906ms total)
T1640 001:661 JLINK_WriteReg(R1, 0x00000400)  returns 0x00 (0000ms, 0906ms total)
T1640 001:661 JLINK_WriteReg(R2, 0x20000164)  returns 0x00 (0000ms, 0906ms total)
T1640 001:661 JLINK_WriteReg(R3, 0x00000000)  returns 0x00 (0000ms, 0906ms total)
T1640 001:661 JLINK_WriteReg(R4, 0x00000000)  returns 0x00 (0000ms, 0906ms total)
T1640 001:661 JLINK_WriteReg(R5, 0x00000000)  returns 0x00 (0000ms, 0906ms total)
T1640 001:661 JLINK_WriteReg(R6, 0x00000000)  returns 0x00 (0000ms, 0906ms total)
T1640 001:661 JLINK_WriteReg(R7, 0x00000000)  returns 0x00 (0000ms, 0906ms total)
T1640 001:661 JLINK_WriteReg(R8, 0x00000000)  returns 0x00 (0000ms, 0906ms total)
T1640 001:661 JLINK_WriteReg(R9, 0x20000160)  returns 0x00 (0000ms, 0906ms total)
T1640 001:661 JLINK_WriteReg(R10, 0x00000000)  returns 0x00 (0000ms, 0906ms total)
T1640 001:661 JLINK_WriteReg(R11, 0x00000000)  returns 0x00 (0000ms, 0906ms total)
T1640 001:661 JLINK_WriteReg(R12, 0x00000000)  returns 0x00 (0000ms, 0906ms total)
T1640 001:661 JLINK_WriteReg(R13 (SP), 0x20000800)  returns 0x00 (0000ms, 0906ms total)
T1640 001:661 JLINK_WriteReg(R14, 0x20000001)  returns 0x00 (0000ms, 0906ms total)
T1640 001:661 JLINK_WriteReg(R15 (PC), 0x200000F4)  returns 0x00 (0000ms, 0906ms total)
T1640 001:661 JLINK_WriteReg(XPSR, 0x01000000)  returns 0x00 (0000ms, 0906ms total)
T1640 001:661 JLINK_WriteReg(MSP, 0x20000800)  returns 0x00 (0000ms, 0906ms total)
T1640 001:661 JLINK_WriteReg(PSP, 0x20000800)  returns 0x00 (0000ms, 0906ms total)
T1640 001:661 JLINK_WriteReg(CFBP, 0x00000000)  returns 0x00 (0000ms, 0906ms total)
T1640 001:661 JLINK_SetBPEx(Addr = 0x20000000, Type = 0xFFFFFFF2)  returns 0x0000000D (0000ms, 0906ms total)
T1640 001:661 JLINK_Go() (0003ms, 0909ms total)
T1640 001:664 JLINK_IsHalted()  returns FALSE (0001ms, 0910ms total)
T1640 001:668 JLINK_IsHalted()  returns FALSE (0001ms, 0910ms total)
T1640 001:670 JLINK_IsHalted()  returns FALSE (0001ms, 0910ms total)
T1640 001:672 JLINK_IsHalted()  returns FALSE (0001ms, 0910ms total)
T1640 001:674 JLINK_IsHalted()  returns FALSE (0001ms, 0910ms total)
T1640 001:676 JLINK_IsHalted()  returns FALSE (0001ms, 0910ms total)
T1640 001:678 JLINK_IsHalted()  returns FALSE (0001ms, 0910ms total)
T1640 001:681 JLINK_IsHalted()  returns FALSE (0001ms, 0910ms total)
T1640 001:683 JLINK_IsHalted()  returns FALSE (0001ms, 0910ms total)
T1640 001:685 JLINK_IsHalted()  returns FALSE (0001ms, 0910ms total)
T1640 001:687 JLINK_IsHalted()  returns FALSE (0001ms, 0910ms total)
T1640 001:689 JLINK_IsHalted()  returns FALSE (0001ms, 0910ms total)
T1640 001:691 JLINK_IsHalted()  returns FALSE (0001ms, 0910ms total)
T1640 001:693 JLINK_IsHalted()  returns FALSE (0001ms, 0910ms total)
T1640 001:697 JLINK_IsHalted() -- CPU_ReadMem(2 bytes @ 0x20000000)  returns TRUE (0005ms, 0914ms total)
T1640 001:702 JLINK_ReadReg(R15 (PC))  returns 0x20000000 (0000ms, 0909ms total)
T1640 001:702 JLINK_ClrBPEx(BPHandle = 0x0000000D)  returns 0x00 (0000ms, 0909ms total)
T1640 001:702 JLINK_ReadReg(R0)  returns 0x00000000 (0000ms, 0909ms total)
T1640 001:703 JLINK_WriteMem(0x20000164, 0x0400 Bytes, ...) - Data: 50 1F EE D3 6D 1C 20 48 00 68 85 42 E4 D3 00 25 ... -- CPU_WriteMem(1024 bytes @ 0x20000164)  returns 0x400 (0008ms, 0917ms total)
T1640 001:711 JLINK_WriteReg(R0, 0x08002400)  returns 0x00 (0000ms, 0917ms total)
T1640 001:711 JLINK_WriteReg(R1, 0x00000400)  returns 0x00 (0000ms, 0917ms total)
T1640 001:711 JLINK_WriteReg(R2, 0x20000164)  returns 0x00 (0000ms, 0917ms total)
T1640 001:711 JLINK_WriteReg(R3, 0x00000000)  returns 0x00 (0000ms, 0917ms total)
T1640 001:711 JLINK_WriteReg(R4, 0x00000000)  returns 0x00 (0000ms, 0917ms total)
T1640 001:711 JLINK_WriteReg(R5, 0x00000000)  returns 0x00 (0000ms, 0917ms total)
T1640 001:711 JLINK_WriteReg(R6, 0x00000000)  returns 0x00 (0000ms, 0917ms total)
T1640 001:711 JLINK_WriteReg(R7, 0x00000000)  returns 0x00 (0000ms, 0917ms total)
T1640 001:711 JLINK_WriteReg(R8, 0x00000000)  returns 0x00 (0000ms, 0917ms total)
T1640 001:711 JLINK_WriteReg(R9, 0x20000160)  returns 0x00 (0000ms, 0917ms total)
T1640 001:711 JLINK_WriteReg(R10, 0x00000000)  returns 0x00 (0000ms, 0917ms total)
T1640 001:711 JLINK_WriteReg(R11, 0x00000000)  returns 0x00 (0000ms, 0917ms total)
T1640 001:711 JLINK_WriteReg(R12, 0x00000000)  returns 0x00 (0000ms, 0917ms total)
T1640 001:711 JLINK_WriteReg(R13 (SP), 0x20000800)  returns 0x00 (0000ms, 0917ms total)
T1640 001:711 JLINK_WriteReg(R14, 0x20000001)  returns 0x00 (0000ms, 0917ms total)
T1640 001:711 JLINK_WriteReg(R15 (PC), 0x200000F4)  returns 0x00 (0000ms, 0917ms total)
T1640 001:711 JLINK_WriteReg(XPSR, 0x01000000)  returns 0x00 (0000ms, 0917ms total)
T1640 001:711 JLINK_WriteReg(MSP, 0x20000800)  returns 0x00 (0000ms, 0917ms total)
T1640 001:711 JLINK_WriteReg(PSP, 0x20000800)  returns 0x00 (0000ms, 0917ms total)
T1640 001:711 JLINK_WriteReg(CFBP, 0x00000000)  returns 0x00 (0000ms, 0917ms total)
T1640 001:711 JLINK_SetBPEx(Addr = 0x20000000, Type = 0xFFFFFFF2)  returns 0x0000000E (0000ms, 0917ms total)
T1640 001:711 JLINK_Go() (0004ms, 0921ms total)
T1640 001:715 JLINK_IsHalted()  returns FALSE (0001ms, 0922ms total)
T1640 001:720 JLINK_IsHalted()  returns FALSE (0001ms, 0922ms total)
T1640 001:722 JLINK_IsHalted()  returns FALSE (0001ms, 0922ms total)
T1640 001:724 JLINK_IsHalted()  returns FALSE (0001ms, 0922ms total)
T1640 001:726 JLINK_IsHalted()  returns FALSE (0001ms, 0922ms total)
T1640 001:728 JLINK_IsHalted()  returns FALSE (0001ms, 0922ms total)
T1640 001:730 JLINK_IsHalted()  returns FALSE (0001ms, 0922ms total)
T1640 001:732 JLINK_IsHalted()  returns FALSE (0001ms, 0922ms total)
T1640 001:734 JLINK_IsHalted()  returns FALSE (0001ms, 0922ms total)
T1640 001:736 JLINK_IsHalted()  returns FALSE (0001ms, 0922ms total)
T1640 001:738 JLINK_IsHalted()  returns FALSE (0001ms, 0922ms total)
T1640 001:740 JLINK_IsHalted()  returns FALSE (0001ms, 0922ms total)
T1640 001:742 JLINK_IsHalted()  returns FALSE (0000ms, 0921ms total)
T1640 001:746 JLINK_IsHalted() -- CPU_ReadMem(2 bytes @ 0x20000000)  returns TRUE (0005ms, 0926ms total)
T1640 001:751 JLINK_ReadReg(R15 (PC))  returns 0x20000000 (0000ms, 0921ms total)
T1640 001:751 JLINK_ClrBPEx(BPHandle = 0x0000000E)  returns 0x00 (0000ms, 0921ms total)
T1640 001:751 JLINK_ReadReg(R0)  returns 0x00000000 (0000ms, 0921ms total)
T1640 001:751 JLINK_WriteMem(0x20000164, 0x0400 Bytes, ...) - Data: 01 EB 00 10 44 09 09 E0 67 20 0D F0 36 FC 67 20 ... -- CPU_WriteMem(1024 bytes @ 0x20000164)  returns 0x400 (0009ms, 0930ms total)
T1640 001:760 JLINK_WriteReg(R0, 0x08002800)  returns 0x00 (0000ms, 0930ms total)
T1640 001:760 JLINK_WriteReg(R1, 0x00000400)  returns 0x00 (0000ms, 0930ms total)
T1640 001:760 JLINK_WriteReg(R2, 0x20000164)  returns 0x00 (0000ms, 0930ms total)
T1640 001:760 JLINK_WriteReg(R3, 0x00000000)  returns 0x00 (0000ms, 0930ms total)
T1640 001:760 JLINK_WriteReg(R4, 0x00000000)  returns 0x00 (0000ms, 0930ms total)
T1640 001:760 JLINK_WriteReg(R5, 0x00000000)  returns 0x00 (0000ms, 0930ms total)
T1640 001:760 JLINK_WriteReg(R6, 0x00000000)  returns 0x00 (0000ms, 0930ms total)
T1640 001:760 JLINK_WriteReg(R7, 0x00000000)  returns 0x00 (0000ms, 0930ms total)
T1640 001:760 JLINK_WriteReg(R8, 0x00000000)  returns 0x00 (0000ms, 0930ms total)
T1640 001:760 JLINK_WriteReg(R9, 0x20000160)  returns 0x00 (0000ms, 0930ms total)
T1640 001:760 JLINK_WriteReg(R10, 0x00000000)  returns 0x00 (0000ms, 0930ms total)
T1640 001:760 JLINK_WriteReg(R11, 0x00000000)  returns 0x00 (0000ms, 0930ms total)
T1640 001:760 JLINK_WriteReg(R12, 0x00000000)  returns 0x00 (0000ms, 0930ms total)
T1640 001:760 JLINK_WriteReg(R13 (SP), 0x20000800)  returns 0x00 (0000ms, 0930ms total)
T1640 001:760 JLINK_WriteReg(R14, 0x20000001)  returns 0x00 (0000ms, 0930ms total)
T1640 001:760 JLINK_WriteReg(R15 (PC), 0x200000F4)  returns 0x00 (0000ms, 0930ms total)
T1640 001:760 JLINK_WriteReg(XPSR, 0x01000000)  returns 0x00 (0000ms, 0930ms total)
T1640 001:760 JLINK_WriteReg(MSP, 0x20000800)  returns 0x00 (0000ms, 0930ms total)
T1640 001:760 JLINK_WriteReg(PSP, 0x20000800)  returns 0x00 (0000ms, 0930ms total)
T1640 001:760 JLINK_WriteReg(CFBP, 0x00000000)  returns 0x00 (0000ms, 0930ms total)
T1640 001:760 JLINK_SetBPEx(Addr = 0x20000000, Type = 0xFFFFFFF2)  returns 0x0000000F (0000ms, 0930ms total)
T1640 001:760 JLINK_Go() (0003ms, 0933ms total)
T1640 001:763 JLINK_IsHalted()  returns FALSE (0001ms, 0934ms total)
T1640 001:767 JLINK_IsHalted()  returns FALSE (0001ms, 0934ms total)
T1640 001:769 JLINK_IsHalted()  returns FALSE (0001ms, 0934ms total)
T1640 001:771 JLINK_IsHalted()  returns FALSE (0001ms, 0934ms total)
T1640 001:773 JLINK_IsHalted()  returns FALSE (0001ms, 0934ms total)
T1640 001:775 JLINK_IsHalted()  returns FALSE (0001ms, 0934ms total)
T1640 001:777 JLINK_IsHalted()  returns FALSE (0001ms, 0934ms total)
T1640 001:779 JLINK_IsHalted()  returns FALSE (0000ms, 0933ms total)
T1640 001:780 JLINK_IsHalted()  returns FALSE (0000ms, 0933ms total)
T1640 001:781 JLINK_IsHalted()  returns FALSE (0000ms, 0933ms total)
T1640 001:782 JLINK_IsHalted()  returns FALSE (0000ms, 0933ms total)
T1640 001:783 JLINK_IsHalted()  returns FALSE (0000ms, 0933ms total)
T1640 001:784 JLINK_IsHalted()  returns FALSE (0000ms, 0933ms total)
T1640 001:785 JLINK_IsHalted()  returns FALSE (0000ms, 0933ms total)
T1640 001:786 JLINK_IsHalted()  returns FALSE (0000ms, 0933ms total)
T1640 001:787 JLINK_IsHalted()  returns FALSE (0000ms, 0933ms total)
T1640 001:788 JLINK_IsHalted()  returns FALSE (0000ms, 0933ms total)
T1640 001:789 JLINK_IsHalted()  returns FALSE (0000ms, 0933ms total)
T1640 001:790 JLINK_IsHalted()  returns FALSE (0001ms, 0934ms total)
